X--Trace 1::[Channel A],Y--Trace 1::[Channel A],,X--Trace 2::[Channel B],Y--Trace 2::[Channel B]
0,0,,0,0.000965641
6.25e-008,0.00392698,,6.25e-008,0.000994052
1.25e-007,0.0078539,,1.25e-007,0.00101692
2.5e-007,0.0157073,,2.5e-007,0.00105422
5e-007,0.0314108,,5e-007,0.00110206
8.44795e-007,0.0530551,,8.44795e-007,0.0011812
1.48987e-006,0.0934745,,1.48987e-006,0.00163415
2.09097e-006,0.131002,,2.09097e-006,0.00265408
3.19104e-006,0.199158,,3.19104e-006,0.00690272
4.67706e-006,0.289657,,4.67706e-006,0.0192367
7.38854e-006,0.447739,,7.38854e-006,0.0671761
1.14546e-005,0.659168,,1.14546e-005,0.206899
1.65458e-005,0.862204,,1.65458e-005,0.480658
2.27958e-005,0.990425,,2.27958e-005,0.887479
2.90458e-005,0.967863,,2.90458e-005,1.25502
3.52958e-005,0.797953,,3.52958e-005,1.47069
4.15458e-005,0.506561,,4.15458e-005,1.46705
4.77958e-005,0.13805,,4.77958e-005,1.23042
5.40458e-005,-0.251477,,5.40458e-005,0.795051
6.02958e-005,-0.60272,,6.02958e-005,0.230537
6.65458e-005,-0.862204,,6.65458e-005,-0.373158
7.27958e-005,-0.990425,,7.27958e-005,-0.921171
7.90458e-005,-0.967863,,7.90458e-005,-1.3285
8.52958e-005,-0.797953,,8.52958e-005,-1.53255
9.15458e-005,-0.506561,,9.15458e-005,-1.50236
9.77958e-005,-0.13805,,9.77958e-005,-1.24291
0.000104046,0.251477,,0.000104046,-0.79398
0.000110296,0.60272,,0.000110296,-0.224031
0.000116546,0.862204,,0.000116546,0.380198
0.000122796,0.990425,,0.000122796,0.926676
0.000129046,0.967863,,0.000129046,1.33216
0.000135296,0.797953,,0.000135296,1.53485
0.000141546,0.506561,,0.000141546,1.50397
0.000147796,0.13805,,0.000147796,1.24437
0.000154046,-0.251477,,0.000154046,0.795625
0.000160296,-0.60272,,0.000160296,0.225968
0.000166546,-0.862204,,0.000166546,-0.378036
0.000172796,-0.990425,,0.000172796,-0.924455
0.000179046,-0.967863,,0.000179046,-1.33005
0.000185296,-0.797953,,0.000185296,-1.53292
0.000191546,-0.506561,,0.000191546,-1.50216
0.000197796,-0.13805,,0.000197796,-1.24257
0.000204046,0.251477,,0.000204046,-0.793709
0.000210296,0.60272,,0.000210296,-0.223878
0.000216546,0.862204,,0.000216546,0.380252
0.000222796,0.990425,,0.000222796,0.926675
0.000229046,0.967863,,0.000229046,1.33214
0.000235296,0.797953,,0.000235296,1.53483
0.000241546,0.506561,,0.000241546,1.50396
0.000247796,0.13805,,0.000247796,1.24436
0.000254046,-0.251477,,0.000254046,0.795624
0.000260296,-0.60272,,0.000260296,0.225969
0.000266546,-0.862204,,0.000266546,-0.378035
0.000272796,-0.990425,,0.000272796,-0.924454
0.000279046,-0.967863,,0.000279046,-1.33005
0.000285296,-0.797953,,0.000285296,-1.53292
0.000291546,-0.506561,,0.000291546,-1.50216
0.000297796,-0.13805,,0.000297796,-1.24257
0.000304046,0.251477,,0.000304046,-0.793709
0.000310296,0.60272,,0.000310296,-0.223878
0.000316546,0.862204,,0.000316546,0.380252
0.000322796,0.990425,,0.000322796,0.926675
0.000329046,0.967863,,0.000329046,1.33214
0.000335296,0.797953,,0.000335296,1.53483
0.000341546,0.506561,,0.000341546,1.50396
0.000347796,0.13805,,0.000347796,1.24436
0.000354046,-0.251477,,0.000354046,0.795624
0.000360296,-0.60272,,0.000360296,0.225969
0.000366546,-0.862204,,0.000366546,-0.378034
0.000372796,-0.990425,,0.000372796,-0.924454
0.000379046,-0.967863,,0.000379046,-1.33005
0.000385296,-0.797953,,0.000385296,-1.53292
0.000391546,-0.506561,,0.000391546,-1.50216
0.000397796,-0.13805,,0.000397796,-1.24257
0.000404046,0.251477,,0.000404046,-0.793709
0.000410296,0.60272,,0.000410296,-0.223878
0.000416546,0.862204,,0.000416546,0.380252
0.000422796,0.990425,,0.000422796,0.926675
0.000429046,0.967863,,0.000429046,1.33214
0.000435296,0.797953,,0.000435296,1.53483
0.000441546,0.506561,,0.000441546,1.50396
0.000447796,0.13805,,0.000447796,1.24436
0.000454046,-0.251477,,0.000454046,0.795624
0.000460296,-0.60272,,0.000460296,0.225969
0.000466546,-0.862204,,0.000466546,-0.378034
0.000472796,-0.990425,,0.000472796,-0.924454
0.000479046,-0.967863,,0.000479046,-1.33005
0.000485296,-0.797953,,0.000485296,-1.53292
0.000491546,-0.506561,,0.000491546,-1.50216
0.000497796,-0.13805,,0.000497796,-1.24257
0.000504046,0.251477,,0.000504046,-0.793709
0.000510296,0.60272,,0.000510296,-0.223878
0.000516546,0.862204,,0.000516546,0.380252
0.000522796,0.990425,,0.000522796,0.926675
0.000529046,0.967863,,0.000529046,1.33214
0.000535296,0.797953,,0.000535296,1.53483
0.000541546,0.506561,,0.000541546,1.50396
0.000547796,0.13805,,0.000547796,1.24436
0.000554046,-0.251477,,0.000554046,0.795624
0.000560296,-0.60272,,0.000560296,0.225969
0.000566546,-0.862204,,0.000566546,-0.378034
0.000572796,-0.990425,,0.000572796,-0.924454
0.000579046,-0.967863,,0.000579046,-1.33005
0.000585296,-0.797953,,0.000585296,-1.53292
0.000591546,-0.506561,,0.000591546,-1.50216
0.000597796,-0.13805,,0.000597796,-1.24257
0.000604046,0.251477,,0.000604046,-0.793709
0.000610296,0.60272,,0.000610296,-0.223878
0.000616546,0.862204,,0.000616546,0.380252
0.000622796,0.990425,,0.000622796,0.926675
0.000629046,0.967863,,0.000629046,1.33214
0.000635296,0.797953,,0.000635296,1.53483
0.000641546,0.506561,,0.000641546,1.50396
0.000647796,0.13805,,0.000647796,1.24436
0.000654046,-0.251477,,0.000654046,0.795624
0.000660296,-0.60272,,0.000660296,0.225969
0.000666546,-0.862204,,0.000666546,-0.378034
0.000672796,-0.990425,,0.000672796,-0.924454
0.000679046,-0.967863,,0.000679046,-1.33005
0.000685296,-0.797953,,0.000685296,-1.53292
0.000691546,-0.506561,,0.000691546,-1.50216
0.000697796,-0.13805,,0.000697796,-1.24257
0.000704046,0.251477,,0.000704046,-0.793709
0.000710296,0.60272,,0.000710296,-0.223878
0.000716546,0.862204,,0.000716546,0.380252
0.000722796,0.990425,,0.000722796,0.926675
0.000729046,0.967863,,0.000729046,1.33214
0.000735296,0.797953,,0.000735296,1.53483
0.000741546,0.506561,,0.000741546,1.50396
0.000747796,0.13805,,0.000747796,1.24436
0.000754046,-0.251477,,0.000754046,0.795624
0.000760296,-0.60272,,0.000760296,0.225969
0.000766546,-0.862204,,0.000766546,-0.378034
0.000772796,-0.990425,,0.000772796,-0.924454
0.000779046,-0.967863,,0.000779046,-1.33005
0.000785296,-0.797953,,0.000785296,-1.53292
0.000791546,-0.506561,,0.000791546,-1.50216
0.000797796,-0.13805,,0.000797796,-1.24257
0.000804046,0.251477,,0.000804046,-0.793709
0.000810296,0.60272,,0.000810296,-0.223878
0.000816546,0.862204,,0.000816546,0.380252
0.000822796,0.990425,,0.000822796,0.926675
0.000829046,0.967863,,0.000829046,1.33214
0.000835296,0.797953,,0.000835296,1.53483
0.000841546,0.506561,,0.000841546,1.50396
0.000847796,0.13805,,0.000847796,1.24436
0.000854046,-0.251477,,0.000854046,0.795624
0.000860296,-0.60272,,0.000860296,0.225969
0.000866546,-0.862204,,0.000866546,-0.378034
0.000872796,-0.990425,,0.000872796,-0.924454
0.000879046,-0.967863,,0.000879046,-1.33005
0.000885296,-0.797953,,0.000885296,-1.53292
0.000891546,-0.506561,,0.000891546,-1.50216
0.000897796,-0.13805,,0.000897796,-1.24257
0.000904046,0.251477,,0.000904046,-0.793709
0.000910296,0.60272,,0.000910296,-0.223878
0.000916546,0.862204,,0.000916546,0.380251
0.000922796,0.990425,,0.000922796,0.926675
0.000929046,0.967863,,0.000929046,1.33214
0.000935296,0.797953,,0.000935296,1.53483
0.000941546,0.506561,,0.000941546,1.50396
0.000947796,0.13805,,0.000947796,1.24436
0.000954046,-0.251477,,0.000954046,0.795624
0.000960296,-0.60272,,0.000960296,0.225969
0.000966546,-0.862204,,0.000966546,-0.378034
0.000972796,-0.990425,,0.000972796,-0.924454
0.000979046,-0.967863,,0.000979046,-1.33005
0.000985296,-0.797953,,0.000985296,-1.53292
0.000991546,-0.506561,,0.000991546,-1.50216
0.000997796,-0.13805,,0.000997796,-1.24257
0.00100405,0.251477,,0.00100405,-0.793709
0.0010103,0.60272,,0.0010103,-0.223878
0.00101655,0.862204,,0.00101655,0.380251
0.0010228,0.990425,,0.0010228,0.926675
0.00102905,0.967863,,0.00102905,1.33214
0.0010353,0.797953,,0.0010353,1.53483
0.00104155,0.506561,,0.00104155,1.50396
0.0010478,0.13805,,0.0010478,1.24436
0.00105405,-0.251477,,0.00105405,0.795624
0.0010603,-0.60272,,0.0010603,0.225969
0.00106655,-0.862204,,0.00106655,-0.378034
0.0010728,-0.990425,,0.0010728,-0.924454
0.00107905,-0.967863,,0.00107905,-1.33005
0.0010853,-0.797953,,0.0010853,-1.53292
0.00109155,-0.506561,,0.00109155,-1.50216
0.0010978,-0.13805,,0.0010978,-1.24257
0.00110405,0.251477,,0.00110405,-0.793709
0.0011103,0.60272,,0.0011103,-0.223878
0.00111655,0.862204,,0.00111655,0.380251
0.0011228,0.990425,,0.0011228,0.926675
0.00112905,0.967863,,0.00112905,1.33214
0.0011353,0.797953,,0.0011353,1.53483
0.00114155,0.506561,,0.00114155,1.50396
0.0011478,0.13805,,0.0011478,1.24436
0.00115405,-0.251477,,0.00115405,0.795624
0.0011603,-0.60272,,0.0011603,0.225969
0.00116655,-0.862204,,0.00116655,-0.378034
0.0011728,-0.990425,,0.0011728,-0.924454
0.00117905,-0.967863,,0.00117905,-1.33005
0.0011853,-0.797953,,0.0011853,-1.53292
0.00119155,-0.506561,,0.00119155,-1.50216
0.0011978,-0.13805,,0.0011978,-1.24257
0.00120405,0.251477,,0.00120405,-0.793709
0.0012103,0.60272,,0.0012103,-0.223878
0.00121655,0.862204,,0.00121655,0.380251
0.0012228,0.990425,,0.0012228,0.926675
0.00122905,0.967863,,0.00122905,1.33214
0.0012353,0.797953,,0.0012353,1.53483
0.00124155,0.506561,,0.00124155,1.50396
0.0012478,0.13805,,0.0012478,1.24436
0.00125405,-0.251477,,0.00125405,0.795624
0.0012603,-0.60272,,0.0012603,0.225969
0.00126655,-0.862204,,0.00126655,-0.378034
0.0012728,-0.990425,,0.0012728,-0.924454
0.00127905,-0.967863,,0.00127905,-1.33005
0.0012853,-0.797953,,0.0012853,-1.53292
0.00129155,-0.506561,,0.00129155,-1.50216
0.0012978,-0.13805,,0.0012978,-1.24257
0.00130405,0.251477,,0.00130405,-0.793709
0.0013103,0.60272,,0.0013103,-0.223878
0.00131655,0.862204,,0.00131655,0.380251
0.0013228,0.990425,,0.0013228,0.926675
0.00132905,0.967863,,0.00132905,1.33214
0.0013353,0.797953,,0.0013353,1.53483
0.00134155,0.506561,,0.00134155,1.50396
0.0013478,0.13805,,0.0013478,1.24436
0.00135405,-0.251477,,0.00135405,0.795624
0.0013603,-0.60272,,0.0013603,0.225969
0.00136655,-0.862204,,0.00136655,-0.378034
0.0013728,-0.990425,,0.0013728,-0.924454
0.00137905,-0.967863,,0.00137905,-1.33005
0.0013853,-0.797953,,0.0013853,-1.53292
0.00139155,-0.506561,,0.00139155,-1.50216
0.0013978,-0.13805,,0.0013978,-1.24257
0.00140405,0.251477,,0.00140405,-0.793709
0.0014103,0.60272,,0.0014103,-0.223878
0.00141655,0.862204,,0.00141655,0.380251
0.0014228,0.990425,,0.0014228,0.926675
0.00142905,0.967863,,0.00142905,1.33214
0.0014353,0.797953,,0.0014353,1.53483
0.00144155,0.506561,,0.00144155,1.50396
0.0014478,0.13805,,0.0014478,1.24436
0.00145405,-0.251477,,0.00145405,0.795624
0.0014603,-0.60272,,0.0014603,0.225969
0.00146655,-0.862204,,0.00146655,-0.378034
0.0014728,-0.990425,,0.0014728,-0.924454
0.00147905,-0.967863,,0.00147905,-1.33005
0.0014853,-0.797953,,0.0014853,-1.53292
0.00149155,-0.506561,,0.00149155,-1.50216
0.0014978,-0.13805,,0.0014978,-1.24257
0.00150405,0.251477,,0.00150405,-0.793709
0.0015103,0.60272,,0.0015103,-0.223878
0.00151655,0.862204,,0.00151655,0.380251
0.0015228,0.990425,,0.0015228,0.926675
0.00152905,0.967863,,0.00152905,1.33214
0.0015353,0.797953,,0.0015353,1.53483
0.00154155,0.506561,,0.00154155,1.50396
0.0015478,0.13805,,0.0015478,1.24436
0.00155405,-0.251477,,0.00155405,0.795624
0.0015603,-0.60272,,0.0015603,0.225969
0.00156655,-0.862204,,0.00156655,-0.378034
0.0015728,-0.990425,,0.0015728,-0.924454
0.00157905,-0.967863,,0.00157905,-1.33005
0.0015853,-0.797953,,0.0015853,-1.53292
0.00159155,-0.506561,,0.00159155,-1.50216
0.0015978,-0.13805,,0.0015978,-1.24257
0.00160405,0.251477,,0.00160405,-0.793709
0.0016103,0.60272,,0.0016103,-0.223878
0.00161655,0.862204,,0.00161655,0.380251
0.0016228,0.990425,,0.0016228,0.926675
0.00162905,0.967863,,0.00162905,1.33214
0.0016353,0.797953,,0.0016353,1.53483
0.00164155,0.506561,,0.00164155,1.50396
0.0016478,0.13805,,0.0016478,1.24436
0.00165405,-0.251477,,0.00165405,0.795624
0.0016603,-0.60272,,0.0016603,0.225969
0.00166655,-0.862204,,0.00166655,-0.378034
0.0016728,-0.990425,,0.0016728,-0.924454
0.00167905,-0.967863,,0.00167905,-1.33005
0.0016853,-0.797953,,0.0016853,-1.53292
0.00169155,-0.506561,,0.00169155,-1.50216
0.0016978,-0.13805,,0.0016978,-1.24257
0.00170405,0.251477,,0.00170405,-0.793709
0.0017103,0.60272,,0.0017103,-0.223878
0.00171655,0.862204,,0.00171655,0.380251
0.0017228,0.990425,,0.0017228,0.926675
0.00172905,0.967863,,0.00172905,1.33214
0.0017353,0.797953,,0.0017353,1.53483
0.00174155,0.506561,,0.00174155,1.50396
0.0017478,0.13805,,0.0017478,1.24436
0.00175405,-0.251477,,0.00175405,0.795624
0.0017603,-0.60272,,0.0017603,0.225969
0.00176655,-0.862204,,0.00176655,-0.378034
0.0017728,-0.990425,,0.0017728,-0.924454
0.00177905,-0.967863,,0.00177905,-1.33005
0.0017853,-0.797953,,0.0017853,-1.53292
0.00179155,-0.506561,,0.00179155,-1.50216
0.0017978,-0.13805,,0.0017978,-1.24257
0.00180405,0.251477,,0.00180405,-0.793709
0.0018103,0.60272,,0.0018103,-0.223878
0.00181655,0.862204,,0.00181655,0.380251
0.0018228,0.990425,,0.0018228,0.926675
0.00182905,0.967863,,0.00182905,1.33214
0.0018353,0.797953,,0.0018353,1.53483
0.00184155,0.506561,,0.00184155,1.50396
0.0018478,0.13805,,0.0018478,1.24436
0.00185405,-0.251477,,0.00185405,0.795624
0.0018603,-0.60272,,0.0018603,0.225969
0.00186655,-0.862204,,0.00186655,-0.378034
0.0018728,-0.990425,,0.0018728,-0.924454
0.00187905,-0.967863,,0.00187905,-1.33005
0.0018853,-0.797953,,0.0018853,-1.53292
0.00189155,-0.506561,,0.00189155,-1.50216
0.0018978,-0.13805,,0.0018978,-1.24257
0.00190405,0.251477,,0.00190405,-0.793709
0.0019103,0.60272,,0.0019103,-0.223878
0.00191655,0.862204,,0.00191655,0.380251
0.0019228,0.990425,,0.0019228,0.926675
0.00192905,0.967863,,0.00192905,1.33214
0.0019353,0.797953,,0.0019353,1.53483
0.00194155,0.506561,,0.00194155,1.50396
0.0019478,0.13805,,0.0019478,1.24436
0.00195405,-0.251477,,0.00195405,0.795624
0.0019603,-0.60272,,0.0019603,0.225969
0.00196655,-0.862204,,0.00196655,-0.378034
0.0019728,-0.990425,,0.0019728,-0.924454
0.00197905,-0.967863,,0.00197905,-1.33005
0.0019853,-0.797953,,0.0019853,-1.53292
0.00199155,-0.506561,,0.00199155,-1.50216
0.0019978,-0.13805,,0.0019978,-1.24257
0.00200405,0.251477,,0.00200405,-0.793709
0.0020103,0.60272,,0.0020103,-0.223878
0.00201655,0.862204,,0.00201655,0.380251
0.0020228,0.990425,,0.0020228,0.926675
0.00202905,0.967863,,0.00202905,1.33214
0.0020353,0.797953,,0.0020353,1.53483
0.00204155,0.506561,,0.00204155,1.50396
0.0020478,0.13805,,0.0020478,1.24436
0.00205405,-0.251477,,0.00205405,0.795624
0.0020603,-0.60272,,0.0020603,0.225969
0.00206655,-0.862204,,0.00206655,-0.378034
0.0020728,-0.990425,,0.0020728,-0.924454
0.00207905,-0.967863,,0.00207905,-1.33005
0.0020853,-0.797953,,0.0020853,-1.53292
0.00209155,-0.506561,,0.00209155,-1.50216
0.0020978,-0.13805,,0.0020978,-1.24257
0.00210405,0.251477,,0.00210405,-0.793709
0.0021103,0.60272,,0.0021103,-0.223878
0.00211655,0.862204,,0.00211655,0.380251
0.0021228,0.990425,,0.0021228,0.926675
0.00212905,0.967863,,0.00212905,1.33214
0.0021353,0.797953,,0.0021353,1.53483
0.00214155,0.506561,,0.00214155,1.50396
0.0021478,0.13805,,0.0021478,1.24436
0.00215405,-0.251477,,0.00215405,0.795624
0.0021603,-0.60272,,0.0021603,0.225969
0.00216655,-0.862204,,0.00216655,-0.378034
0.0021728,-0.990425,,0.0021728,-0.924454
0.00217905,-0.967863,,0.00217905,-1.33005
0.0021853,-0.797953,,0.0021853,-1.53292
0.00219155,-0.506561,,0.00219155,-1.50216
0.0021978,-0.13805,,0.0021978,-1.24257
0.00220405,0.251477,,0.00220405,-0.793709
0.0022103,0.60272,,0.0022103,-0.223878
0.00221655,0.862204,,0.00221655,0.380251
0.0022228,0.990425,,0.0022228,0.926675
0.00222905,0.967863,,0.00222905,1.33214
0.0022353,0.797953,,0.0022353,1.53483
0.00224155,0.506561,,0.00224155,1.50396
0.0022478,0.13805,,0.0022478,1.24436
0.00225405,-0.251477,,0.00225405,0.795624
0.0022603,-0.60272,,0.0022603,0.225969
0.00226655,-0.862204,,0.00226655,-0.378034
0.0022728,-0.990425,,0.0022728,-0.924454
0.00227905,-0.967863,,0.00227905,-1.33005
0.0022853,-0.797953,,0.0022853,-1.53292
0.00229155,-0.506561,,0.00229155,-1.50216
0.0022978,-0.13805,,0.0022978,-1.24257
0.00230405,0.251477,,0.00230405,-0.793709
0.0023103,0.60272,,0.0023103,-0.223878
0.00231655,0.862204,,0.00231655,0.380251
0.0023228,0.990425,,0.0023228,0.926675
0.00232905,0.967863,,0.00232905,1.33214
0.0023353,0.797953,,0.0023353,1.53483
0.00234155,0.506561,,0.00234155,1.50396
0.0023478,0.13805,,0.0023478,1.24436
0.00235405,-0.251477,,0.00235405,0.795624
0.0023603,-0.60272,,0.0023603,0.225969
0.00236655,-0.862204,,0.00236655,-0.378034
0.0023728,-0.990425,,0.0023728,-0.924454
0.00237905,-0.967863,,0.00237905,-1.33005
0.0023853,-0.797953,,0.0023853,-1.53292
0.00239155,-0.506561,,0.00239155,-1.50216
0.0023978,-0.13805,,0.0023978,-1.24257
0.00240405,0.251477,,0.00240405,-0.793709
0.0024103,0.60272,,0.0024103,-0.223878
0.00241655,0.862204,,0.00241655,0.380251
0.0024228,0.990425,,0.0024228,0.926675
0.00242905,0.967863,,0.00242905,1.33214
0.0024353,0.797953,,0.0024353,1.53483
0.00244155,0.506561,,0.00244155,1.50396
0.0024478,0.13805,,0.0024478,1.24436
0.00245405,-0.251477,,0.00245405,0.795624
0.0024603,-0.60272,,0.0024603,0.225969
0.00246655,-0.862204,,0.00246655,-0.378034
0.0024728,-0.990425,,0.0024728,-0.924454
0.00247905,-0.967863,,0.00247905,-1.33005
0.0024853,-0.797953,,0.0024853,-1.53292
0.00249155,-0.506561,,0.00249155,-1.50216
0.0024978,-0.13805,,0.0024978,-1.24257
0.00250405,0.251477,,0.00250405,-0.793709
0.0025103,0.60272,,0.0025103,-0.223878
0.00251655,0.862204,,0.00251655,0.380251
0.0025228,0.990425,,0.0025228,0.926675
0.00252905,0.967863,,0.00252905,1.33214
0.0025353,0.797953,,0.0025353,1.53483
0.00254155,0.506561,,0.00254155,1.50396
0.0025478,0.13805,,0.0025478,1.24436
0.00255405,-0.251477,,0.00255405,0.795625
0.0025603,-0.60272,,0.0025603,0.225969
0.00256655,-0.862204,,0.00256655,-0.378034
0.0025728,-0.990425,,0.0025728,-0.924454
0.00257905,-0.967863,,0.00257905,-1.33005
0.0025853,-0.797953,,0.0025853,-1.53292
0.00259155,-0.506561,,0.00259155,-1.50216
0.0025978,-0.13805,,0.0025978,-1.24257
0.00260405,0.251477,,0.00260405,-0.793709
0.0026103,0.60272,,0.0026103,-0.223878
0.00261655,0.862204,,0.00261655,0.380251
0.0026228,0.990425,,0.0026228,0.926675
0.00262905,0.967863,,0.00262905,1.33214
0.0026353,0.797953,,0.0026353,1.53483
0.00264155,0.506561,,0.00264155,1.50396
0.0026478,0.13805,,0.0026478,1.24436
0.00265405,-0.251477,,0.00265405,0.795625
0.0026603,-0.60272,,0.0026603,0.225969
0.00266655,-0.862204,,0.00266655,-0.378034
0.0026728,-0.990425,,0.0026728,-0.924454
0.00267905,-0.967863,,0.00267905,-1.33005
0.0026853,-0.797953,,0.0026853,-1.53292
0.00269155,-0.506561,,0.00269155,-1.50216
0.0026978,-0.13805,,0.0026978,-1.24257
0.00270405,0.251477,,0.00270405,-0.793709
0.0027103,0.60272,,0.0027103,-0.223878
0.00271655,0.862204,,0.00271655,0.380251
0.0027228,0.990425,,0.0027228,0.926675
0.00272905,0.967863,,0.00272905,1.33214
0.0027353,0.797953,,0.0027353,1.53483
0.00274155,0.506561,,0.00274155,1.50396
0.0027478,0.13805,,0.0027478,1.24436
0.00275405,-0.251477,,0.00275405,0.795625
0.0027603,-0.60272,,0.0027603,0.225969
0.00276655,-0.862204,,0.00276655,-0.378034
0.0027728,-0.990425,,0.0027728,-0.924454
0.00277905,-0.967863,,0.00277905,-1.33005
0.0027853,-0.797953,,0.0027853,-1.53292
0.00279155,-0.506561,,0.00279155,-1.50216
0.0027978,-0.13805,,0.0027978,-1.24257
0.00280405,0.251477,,0.00280405,-0.793709
0.0028103,0.60272,,0.0028103,-0.223878
0.00281655,0.862204,,0.00281655,0.380251
0.0028228,0.990425,,0.0028228,0.926675
0.00282905,0.967863,,0.00282905,1.33214
0.0028353,0.797953,,0.0028353,1.53483
0.00284155,0.506561,,0.00284155,1.50396
0.0028478,0.13805,,0.0028478,1.24436
0.00285405,-0.251477,,0.00285405,0.795625
0.0028603,-0.60272,,0.0028603,0.225969
0.00286655,-0.862204,,0.00286655,-0.378034
